
T3AB0 000:006 SEGGER J-Link V6.16c Log File (0000ms, 0005ms total)
T3AB0 000:006 DLL Compiled: Jun 16 2017 18:14:49 (0000ms, 0005ms total)
T3AB0 000:006 Logging started @ 2021-11-23 16:50 (0000ms, 0005ms total)
T3AB0 000:006 JLINK_SetWarnOutHandler(...) (0001ms, 0006ms total)
T3AB0 000:007 JLINK_OpenEx(...)
Firmware: J-Link V9 compiled Jun  2 2222 22:22:22
Hardware: V9.40
S/N: 59401308
Feature(s): GDB, RDI, FlashBP, FlashDL, JFlash, RDDIWEBSRV Webserver running on local port 19080 (0028ms, 0034ms total)
T3AB0 000:007   returns O.K. (0028ms, 0034ms total)
T3AB0 000:035 JLINK_GetEmuCaps()  returns 0xB9FF7BBF (0000ms, 0034ms total)
T3AB0 000:035 JLINK_TIF_GetAvailable(...) (0000ms, 0034ms total)
T3AB0 000:035 JLINK_SetErrorOutHandler(...) (0000ms, 0034ms total)
T3AB0 000:035 JLINK_ExecCommand("ProjectFile = "E:\M3_570\RT58x_4942\Project\Application\RF_Evaluation\RF_WiSUN\Keil\JLinkSettings.ini"", ...).   returns 0x00 (0108ms, 0142ms total)
T3AB0 000:146 JLINK_ExecCommand("Device = ARMCM3", ...). Device "CORTEX-M3" selected.  returns 0x00 (0008ms, 0150ms total)
T3AB0 000:155 JLINK_ExecCommand("DisableConnectionTimeout", ...).   returns 0x01 (0000ms, 0151ms total)
T3AB0 000:155 JLINK_GetHardwareVersion()  returns 0x16F30 (0000ms, 0151ms total)
T3AB0 000:155 JLINK_GetDLLVersion()  returns 61603 (0000ms, 0151ms total)
T3AB0 000:155 JLINK_GetFirmwareString(...) (0000ms, 0151ms total)
T3AB0 000:164 JLINK_GetDLLVersion()  returns 61603 (0000ms, 0151ms total)
T3AB0 000:164 JLINK_GetCompileDateTime() (0000ms, 0151ms total)
T3AB0 000:167 JLINK_GetFirmwareString(...) (0000ms, 0151ms total)
T3AB0 000:170 JLINK_GetHardwareVersion()  returns 0x16F30 (0000ms, 0151ms total)
T3AB0 000:181 JLINK_TIF_Select(JLINKARM_TIF_SWD)  returns 0x00 (0001ms, 0152ms total)
T3AB0 000:182 JLINK_SetSpeed(5000) (0000ms, 0152ms total)
T3AB0 000:182 JLINK_GetId() >0x10B TIF>Found SW-DP with ID 0x2BA01477 >0x0D TIF> >0x28 TIF> >0x0D TIF> >0x28 TIF> >0x0D TIF> >0x28 TIF> >0x0D TIF> >0x28 TIF> >0x0D TIF> >0x21 TIF> >0x0D TIF> >0x28 TIF>Scanning APs, stopping at first AHB-AP found. >0x0D TIF> >0x28 TIF> >0x0D TIF> >0x21 TIF> >0x0D TIF> >0x21 TIF>AP[0] IDR: 0x24770011 (AHB-AP) >0x0D TIF> >0x28 TIF> >0x0D TIF> >0x21 TIF> >0x0D TIF> >0x21 TIF>AHB-AP ROM: 0xE00FF000 (Base addr. of first ROM table) >0x0D TIF> >0x28 TIF> >0x0D TIF> >0x28 TIF>
 >0x0D TIF> >0x28 TIF> >0x0D TIF> >0x21 TIF> >0x0D TIF> >0x21 TIF> >0x0D TIF> >0x28 TIF> >0x0D TIF> >0x21 TIF> >0x0D TIF> >0x21 TIF>CPUID reg: 0x412FC231. Implementer code: 0x41 (ARM)Found Cortex-M3 r2p1, Little endian. -- CPU_ReadMem(4 bytes @ 0xE000EDF0) -- CPU_WriteMem(4 bytes @ 0xE000EDF0) -- CPU_ReadMem(4 bytes @ 0xE0002000)FPUnit: 6 code (BP) slots and 2 literal slots -- CPU_ReadMem(4 bytes @ 0xE000EDFC) -- CPU_WriteMem(4 bytes @ 0xE000EDFC) -- CPU_ReadMem(4 bytes @ 0xE0001000)
 -- CPU_WriteMem(4 bytes @ 0xE0001000) -- CPU_ReadMem(4 bytes @ 0xE000ED88) -- CPU_WriteMem(4 bytes @ 0xE000ED88) -- CPU_ReadMem(4 bytes @ 0xE000ED88) -- CPU_WriteMem(4 bytes @ 0xE000ED88)CoreSight components:ROMTbl[0] @ E00FF000 -- CPU_ReadMem(16 bytes @ 0xE00FF000) -- CPU_ReadMem(16 bytes @ 0xE000EFF0) -- CPU_ReadMem(16 bytes @ 0xE000EFE0)ROMTbl[0][0]: E000E000, CID: B105E00D, PID: 000BB000 SCS -- CPU_ReadMem(16 bytes @ 0xE0001FF0) -- CPU_ReadMem(16 bytes @ 0xE0001FE0)
ROMTbl[0][1]: E0001000, CID: B105E00D, PID: 003BB002 DWT -- CPU_ReadMem(16 bytes @ 0xE0002FF0) -- CPU_ReadMem(16 bytes @ 0xE0002FE0)ROMTbl[0][2]: E0002000, CID: B105E00D, PID: 002BB003 FPB -- CPU_ReadMem(16 bytes @ 0xE0000FF0) -- CPU_ReadMem(16 bytes @ 0xE0000FE0)ROMTbl[0][3]: E0000000, CID: B105E00D, PID: 003BB001 ITM -- CPU_ReadMem(16 bytes @ 0xE00FF010) -- CPU_ReadMem(16 bytes @ 0xE0040FF0) -- CPU_ReadMem(16 bytes @ 0xE0040FE0)ROMTbl[0][4]: E0040000, CID: B105900D, PID: 003BB923 TPIU-Lite >0x0D TIF>
 >0x21 TIF>  returns 0x2BA01477 (0064ms, 0216ms total)
T3AB0 000:246 JLINK_GetDLLVersion()  returns 61603 (0000ms, 0216ms total)
T3AB0 000:246 JLINK_CORE_GetFound()  returns 0x30000FF (0000ms, 0216ms total)
T3AB0 000:246 JLINK_GetDebugInfo(0x100 = JLINKARM_ROM_TABLE_ADDR_INDEX) -- Value=0xE00FF000  returns 0x00 (0000ms, 0216ms total)
T3AB0 000:250 JLINK_GetDebugInfo(0x100 = JLINKARM_ROM_TABLE_ADDR_INDEX) -- Value=0xE00FF000  returns 0x00 (0000ms, 0216ms total)
T3AB0 000:250 JLINK_GetDebugInfo(0x101 = JLINKARM_DEBUG_INFO_ETM_ADDR_INDEX) -- Value=0x00000000  returns 0x00 (0000ms, 0216ms total)
T3AB0 000:250 JLINK_ReadMemEx(0xE0041FF0, 0x0010 Bytes, ..., Flags = 0x02000004) -- CPU_ReadMem(16 bytes @ 0xE0041FF0) - Data: 00 00 00 00 00 00 00 00 00 00 00 00 00 00 00 00  returns 0x10 (0001ms, 0217ms total)
T3AB0 000:251 JLINK_GetDebugInfo(0x102 = JLINKARM_DEBUG_INFO_MTB_ADDR_INDEX) -- Value=0x00000000  returns 0x00 (0000ms, 0217ms total)
T3AB0 000:251 JLINK_GetDebugInfo(0x103 = JLINKARM_DEBUG_INFO_TPIU_ADDR_INDEX) -- Value=0xE0040000  returns 0x00 (0000ms, 0217ms total)
T3AB0 000:251 JLINK_GetDebugInfo(0x104 = JLINKARM_DEBUG_INFO_ITM_ADDR_INDEX) -- Value=0xE0000000  returns 0x00 (0000ms, 0217ms total)
T3AB0 000:251 JLINK_GetDebugInfo(0x105 = JLINKARM_DEBUG_INFO_DWT_ADDR_INDEX) -- Value=0xE0001000  returns 0x00 (0000ms, 0217ms total)
T3AB0 000:251 JLINK_GetDebugInfo(0x106 = JLINKARM_DEBUG_INFO_FPB_ADDR_INDEX) -- Value=0xE0002000  returns 0x00 (0000ms, 0217ms total)
T3AB0 000:251 JLINK_GetDebugInfo(0x107 = JLINKARM_DEBUG_INFO_NVIC_ADDR_INDEX) -- Value=0xE000E000  returns 0x00 (0000ms, 0217ms total)
T3AB0 000:251 JLINK_GetDebugInfo(0x10C = JLINKARM_DEBUG_INFO_DBG_ADDR_INDEX) -- Value=0xE000EDF0  returns 0x00 (0000ms, 0217ms total)
T3AB0 000:251 JLINK_ReadMemU32(0xE000ED00, 0x0001 Items, ...) -- CPU_ReadMem(4 bytes @ 0xE000ED00) - Data: 31 C2 2F 41  returns 0x01 (0001ms, 0218ms total)
T3AB0 000:252 JLINK_GetDebugInfo(0x10F = JLINKARM_DEBUG_INFO_HAS_CORTEX_M_SECURITY_EXT_INDEX) -- Value=0x00000000  returns 0x00 (0000ms, 0218ms total)
T3AB0 000:252 JLINK_SetResetType(JLINKARM_CM3_RESET_TYPE_NORMAL)  returns JLINKARM_CM3_RESET_TYPE_NORMAL (0000ms, 0218ms total)
T3AB0 000:252 JLINK_Reset() -- CPU is running -- CPU_WriteMem(4 bytes @ 0xE000EDF0) -- CPU is running -- CPU_WriteMem(4 bytes @ 0xE000EDFC) >0x35 TIF>Setting AIRCR.SYSRESETREQ -- CPU is running -- CPU_WriteMem(4 bytes @ 0xE000ED0C) >0x0D TIF> >0x28 TIF> -- CPU_ReadMem(4 bytes @ 0xE000ED0C) -- CPU_ReadMem(4 bytes @ 0xE000EDF0) -- CPU_ReadMem(4 bytes @ 0xE000EDF0) -- CPU_ReadMem(4 bytes @ 0xE000EDF0) -- CPU is running -- CPU_WriteMem(4 bytes @ 0xE000EDF0) -- CPU is running
 -- CPU_WriteMem(4 bytes @ 0xE000EDFC) -- CPU_ReadMem(4 bytes @ 0xE000EDF0) -- CPU_WriteMem(4 bytes @ 0xE0002000) -- CPU_ReadMem(4 bytes @ 0xE000EDFC) -- CPU_ReadMem(4 bytes @ 0xE0001000) (0072ms, 0290ms total)
T3AB0 000:324 JLINK_Halt()  returns 0x00 (0000ms, 0290ms total)
T3AB0 000:324 JLINK_ReadMemU32(0xE000EDF0, 0x0001 Items, ...) -- CPU_ReadMem(4 bytes @ 0xE000EDF0) - Data: 03 00 03 00  returns 0x01 (0000ms, 0290ms total)
T3AB0 000:324 JLINK_WriteU32(0xE000EDF0, 0xA05F0003) -- CPU_WriteMem(4 bytes @ 0xE000EDF0)  returns 0x00 (0001ms, 0291ms total)
T3AB0 000:325 JLINK_WriteU32(0xE000EDFC, 0x01000000) -- CPU_WriteMem(4 bytes @ 0xE000EDFC)  returns 0x00 (0000ms, 0291ms total)
T3AB0 000:343 JLINK_GetHWStatus(...)  returns 0x00 (0001ms, 0292ms total)
T3AB0 000:353 JLINK_GetNumBPUnits(Type = 0xFFFFFF00)  returns 0x06 (0000ms, 0292ms total)
T3AB0 000:353 JLINK_GetNumBPUnits(Type = 0xF0)  returns 0x2000 (0000ms, 0292ms total)
T3AB0 000:353 JLINK_GetNumWPUnits()  returns 0x04 (0000ms, 0292ms total)
T3AB0 000:361 JLINK_GetSpeed()  returns 0xFA0 (0000ms, 0292ms total)
T3AB0 000:366 JLINK_ReadMemU32(0xE000E004, 0x0001 Items, ...) -- CPU_ReadMem(4 bytes @ 0xE000E004) - Data: 01 00 00 00  returns 0x01 (0000ms, 0292ms total)
T3AB0 000:366 JLINK_ReadMemU32(0xE000E004, 0x0001 Items, ...) -- CPU_ReadMem(4 bytes @ 0xE000E004) - Data: 01 00 00 00  returns 0x01 (0001ms, 0293ms total)
T3AB0 000:367 JLINK_WriteMemEx(0xE0001000, 0x001C Bytes, ..., Flags = 0x02000004) - Data: 01 00 00 00 00 00 00 00 00 00 00 00 00 00 00 00 ... -- CPU_WriteMem(28 bytes @ 0xE0001000)  returns 0x1C (0001ms, 0294ms total)
T3AB0 000:368 JLINK_Halt()  returns 0x00 (0000ms, 0294ms total)
T3AB0 000:368 JLINK_IsHalted()  returns TRUE (0000ms, 0294ms total)
T3AB0 000:372 JLINK_WriteMem(0x20000000, 0x00F0 Bytes, ...) - Data: 00 BE 0A E0 0D 78 2D 06 68 40 08 24 40 00 00 D3 ... -- CPU_WriteMem(240 bytes @ 0x20000000)  returns 0xF0 (0003ms, 0297ms total)
T3AB0 000:375 JLINK_WriteReg(R0, 0x00000000)  returns 0x00 (0000ms, 0297ms total)
T3AB0 000:375 JLINK_WriteReg(R1, 0x00B71B00)  returns 0x00 (0000ms, 0297ms total)
T3AB0 000:375 JLINK_WriteReg(R2, 0x00000001)  returns 0x00 (0000ms, 0297ms total)
T3AB0 000:375 JLINK_WriteReg(R3, 0x00000000)  returns 0x00 (0000ms, 0297ms total)
T3AB0 000:375 JLINK_WriteReg(R4, 0x00000000)  returns 0x00 (0000ms, 0297ms total)
T3AB0 000:375 JLINK_WriteReg(R5, 0x00000000)  returns 0x00 (0000ms, 0297ms total)
T3AB0 000:375 JLINK_WriteReg(R6, 0x00000000)  returns 0x00 (0000ms, 0297ms total)
T3AB0 000:375 JLINK_WriteReg(R7, 0x00000000)  returns 0x00 (0000ms, 0297ms total)
T3AB0 000:375 JLINK_WriteReg(R8, 0x00000000)  returns 0x00 (0000ms, 0297ms total)
T3AB0 000:375 JLINK_WriteReg(R9, 0x200000EC)  returns 0x00 (0000ms, 0297ms total)
T3AB0 000:375 JLINK_WriteReg(R10, 0x00000000)  returns 0x00 (0000ms, 0297ms total)
T3AB0 000:375 JLINK_WriteReg(R11, 0x00000000)  returns 0x00 (0000ms, 0297ms total)
T3AB0 000:375 JLINK_WriteReg(R12, 0x00000000)  returns 0x00 (0000ms, 0297ms total)
T3AB0 000:375 JLINK_WriteReg(R13 (SP), 0x20001000)  returns 0x00 (0000ms, 0297ms total)
T3AB0 000:375 JLINK_WriteReg(R14, 0x20000001)  returns 0x00 (0000ms, 0297ms total)
T3AB0 000:375 JLINK_WriteReg(R15 (PC), 0x20000038)  returns 0x00 (0000ms, 0297ms total)
T3AB0 000:375 JLINK_WriteReg(XPSR, 0x01000000)  returns 0x00 (0000ms, 0297ms total)
T3AB0 000:375 JLINK_WriteReg(MSP, 0x20001000)  returns 0x00 (0000ms, 0297ms total)
T3AB0 000:375 JLINK_WriteReg(PSP, 0x20001000)  returns 0x00 (0000ms, 0297ms total)
T3AB0 000:375 JLINK_WriteReg(CFBP, 0x00000000)  returns 0x00 (0000ms, 0297ms total)
T3AB0 000:375 JLINK_SetBPEx(Addr = 0x20000000, Type = 0xFFFFFFF2) -- CPU_ReadMem(4 bytes @ 0x20000000) -- CPU_WriteMem(4 bytes @ 0x20000000) -- CPU_ReadMem(4 bytes @ 0x20000000) -- CPU_WriteMem(4 bytes @ 0x20000000) -- CPU_ReadMem(2 bytes @ 0x20000000)  returns 0x00000001 (0003ms, 0300ms total)
T3AB0 000:378 JLINK_Go() -- CPU_WriteMem(2 bytes @ 0x20000000) -- CPU_ReadMem(4 bytes @ 0xE0001000) -- CPU_WriteMem(4 bytes @ 0xE0002008) -- CPU_WriteMem(4 bytes @ 0xE000200C) -- CPU_WriteMem(4 bytes @ 0xE0002010) -- CPU_WriteMem(4 bytes @ 0xE0002014) -- CPU_WriteMem(4 bytes @ 0xE0002018) -- CPU_WriteMem(4 bytes @ 0xE000201C) -- CPU_WriteMem(4 bytes @ 0xE0001004) (0006ms, 0306ms total)
T3AB0 000:384 JLINK_IsHalted() -- CPU_ReadMem(2 bytes @ 0x20000000)  returns TRUE (0003ms, 0309ms total)
T3AB0 000:387 JLINK_ReadReg(R15 (PC))  returns 0x20000000 (0000ms, 0306ms total)
T3AB0 000:387 JLINK_ClrBPEx(BPHandle = 0x00000001)  returns 0x00 (0000ms, 0306ms total)
T3AB0 000:387 JLINK_ReadReg(R0)  returns 0x00000000 (0000ms, 0306ms total)
T3AB0 000:387 JLINK_WriteReg(R0, 0x00000000)  returns 0x00 (0000ms, 0306ms total)
T3AB0 000:387 JLINK_WriteReg(R1, 0x00B71B00)  returns 0x00 (0000ms, 0306ms total)
T3AB0 000:387 JLINK_WriteReg(R2, 0x00000001)  returns 0x00 (0000ms, 0306ms total)
T3AB0 000:387 JLINK_WriteReg(R3, 0x00000000)  returns 0x00 (0000ms, 0306ms total)
T3AB0 000:387 JLINK_WriteReg(R4, 0x00000000)  returns 0x00 (0000ms, 0306ms total)
T3AB0 000:387 JLINK_WriteReg(R5, 0x00000000)  returns 0x00 (0000ms, 0306ms total)
T3AB0 000:387 JLINK_WriteReg(R6, 0x00000000)  returns 0x00 (0000ms, 0306ms total)
T3AB0 000:387 JLINK_WriteReg(R7, 0x00000000)  returns 0x00 (0000ms, 0306ms total)
T3AB0 000:387 JLINK_WriteReg(R8, 0x00000000)  returns 0x00 (0000ms, 0306ms total)
T3AB0 000:387 JLINK_WriteReg(R9, 0x200000EC)  returns 0x00 (0000ms, 0306ms total)
T3AB0 000:387 JLINK_WriteReg(R10, 0x00000000)  returns 0x00 (0000ms, 0306ms total)
T3AB0 000:387 JLINK_WriteReg(R11, 0x00000000)  returns 0x00 (0000ms, 0306ms total)
T3AB0 000:387 JLINK_WriteReg(R12, 0x00000000)  returns 0x00 (0000ms, 0306ms total)
T3AB0 000:387 JLINK_WriteReg(R13 (SP), 0x20001000)  returns 0x00 (0000ms, 0306ms total)
T3AB0 000:387 JLINK_WriteReg(R14, 0x20000001)  returns 0x00 (0000ms, 0306ms total)
T3AB0 000:387 JLINK_WriteReg(R15 (PC), 0x2000004C)  returns 0x00 (0000ms, 0306ms total)
T3AB0 000:387 JLINK_WriteReg(XPSR, 0x01000000)  returns 0x00 (0000ms, 0306ms total)
T3AB0 000:387 JLINK_WriteReg(MSP, 0x20001000)  returns 0x00 (0000ms, 0306ms total)
T3AB0 000:387 JLINK_WriteReg(PSP, 0x20001000)  returns 0x00 (0000ms, 0306ms total)
T3AB0 000:387 JLINK_WriteReg(CFBP, 0x00000000)  returns 0x00 (0000ms, 0306ms total)
T3AB0 000:387 JLINK_SetBPEx(Addr = 0x20000000, Type = 0xFFFFFFF2)  returns 0x00000002 (0000ms, 0306ms total)
T3AB0 000:387 JLINK_Go() -- CPU_ReadMem(4 bytes @ 0xE0001000) (0002ms, 0308ms total)
T3AB0 000:389 JLINK_IsHalted()  returns FALSE (0002ms, 0310ms total)
T3AB0 000:487 JLINK_IsHalted()  returns FALSE (0000ms, 0308ms total)
T3AB0 000:490 JLINK_IsHalted()  returns FALSE (0000ms, 0308ms total)
T3AB0 000:499 JLINK_IsHalted()  returns FALSE (0000ms, 0308ms total)
T3AB0 000:501 JLINK_IsHalted()  returns FALSE (0001ms, 0309ms total)
T3AB0 000:504 JLINK_IsHalted()  returns FALSE (0000ms, 0308ms total)
T3AB0 000:507 JLINK_IsHalted()  returns FALSE (0000ms, 0308ms total)
T3AB0 000:509 JLINK_IsHalted()  returns FALSE (0000ms, 0308ms total)
T3AB0 000:511 JLINK_IsHalted()  returns FALSE (0001ms, 0309ms total)
T3AB0 000:516 JLINK_IsHalted()  returns FALSE (0000ms, 0308ms total)
T3AB0 000:518 JLINK_IsHalted()  returns FALSE (0000ms, 0308ms total)
T3AB0 000:520 JLINK_IsHalted()  returns FALSE (0000ms, 0308ms total)
T3AB0 000:523 JLINK_IsHalted()  returns FALSE (0000ms, 0308ms total)
T3AB0 000:526 JLINK_IsHalted()  returns FALSE (0000ms, 0308ms total)
T3AB0 000:531 JLINK_IsHalted()  returns FALSE (0000ms, 0308ms total)
T3AB0 000:533 JLINK_IsHalted()  returns FALSE (0000ms, 0308ms total)
T3AB0 000:535 JLINK_IsHalted()  returns FALSE (0001ms, 0309ms total)
T3AB0 000:539 JLINK_IsHalted()  returns FALSE (0000ms, 0308ms total)
T3AB0 000:544 JLINK_IsHalted() -- CPU_ReadMem(2 bytes @ 0x20000000)  returns TRUE (0003ms, 0311ms total)
T3AB0 000:547 JLINK_ReadReg(R15 (PC))  returns 0x20000000 (0000ms, 0308ms total)
T3AB0 000:547 JLINK_ClrBPEx(BPHandle = 0x00000002)  returns 0x00 (0000ms, 0308ms total)
T3AB0 000:547 JLINK_ReadReg(R0)  returns 0x00000000 (0000ms, 0308ms total)
T3AB0 000:600 JLINK_WriteReg(R0, 0x00000001)  returns 0x00 (0000ms, 0308ms total)
T3AB0 000:600 JLINK_WriteReg(R1, 0x00B71B00)  returns 0x00 (0000ms, 0308ms total)
T3AB0 000:600 JLINK_WriteReg(R2, 0x00000001)  returns 0x00 (0000ms, 0308ms total)
T3AB0 000:600 JLINK_WriteReg(R3, 0x00000000)  returns 0x00 (0000ms, 0308ms total)
T3AB0 000:600 JLINK_WriteReg(R4, 0x00000000)  returns 0x00 (0001ms, 0309ms total)
T3AB0 000:601 JLINK_WriteReg(R5, 0x00000000)  returns 0x00 (0000ms, 0309ms total)
T3AB0 000:601 JLINK_WriteReg(R6, 0x00000000)  returns 0x00 (0000ms, 0309ms total)
T3AB0 000:601 JLINK_WriteReg(R7, 0x00000000)  returns 0x00 (0000ms, 0309ms total)
T3AB0 000:601 JLINK_WriteReg(R8, 0x00000000)  returns 0x00 (0000ms, 0309ms total)
T3AB0 000:601 JLINK_WriteReg(R9, 0x200000EC)  returns 0x00 (0000ms, 0309ms total)
T3AB0 000:601 JLINK_WriteReg(R10, 0x00000000)  returns 0x00 (0000ms, 0309ms total)
T3AB0 000:601 JLINK_WriteReg(R11, 0x00000000)  returns 0x00 (0000ms, 0309ms total)
T3AB0 000:601 JLINK_WriteReg(R12, 0x00000000)  returns 0x00 (0000ms, 0309ms total)
T3AB0 000:601 JLINK_WriteReg(R13 (SP), 0x20001000)  returns 0x00 (0000ms, 0309ms total)
T3AB0 000:601 JLINK_WriteReg(R14, 0x20000001)  returns 0x00 (0000ms, 0309ms total)
T3AB0 000:601 JLINK_WriteReg(R15 (PC), 0x20000042)  returns 0x00 (0000ms, 0309ms total)
T3AB0 000:601 JLINK_WriteReg(XPSR, 0x01000000)  returns 0x00 (0000ms, 0309ms total)
T3AB0 000:601 JLINK_WriteReg(MSP, 0x20001000)  returns 0x00 (0000ms, 0309ms total)
T3AB0 000:602 JLINK_WriteReg(PSP, 0x20001000)  returns 0x00 (0000ms, 0309ms total)
T3AB0 000:602 JLINK_WriteReg(CFBP, 0x00000000)  returns 0x00 (0000ms, 0309ms total)
T3AB0 000:602 JLINK_SetBPEx(Addr = 0x20000000, Type = 0xFFFFFFF2)  returns 0x00000003 (0000ms, 0309ms total)
T3AB0 000:602 JLINK_Go() -- CPU_ReadMem(4 bytes @ 0xE0001000) (0004ms, 0313ms total)
T3AB0 000:606 JLINK_IsHalted() -- CPU_ReadMem(2 bytes @ 0x20000000)  returns TRUE (0003ms, 0316ms total)
T3AB0 000:610 JLINK_ReadReg(R15 (PC))  returns 0x20000000 (0000ms, 0313ms total)
T3AB0 000:610 JLINK_ClrBPEx(BPHandle = 0x00000003)  returns 0x00 (0000ms, 0313ms total)
T3AB0 000:610 JLINK_ReadReg(R0)  returns 0x00000000 (0000ms, 0313ms total)
T3AB0 000:630 JLINK_WriteMem(0x20000000, 0x00F0 Bytes, ...) - Data: 00 BE 0A E0 0D 78 2D 06 68 40 08 24 40 00 00 D3 ... -- CPU_WriteMem(240 bytes @ 0x20000000)  returns 0xF0 (0003ms, 0316ms total)
T3AB0 000:633 JLINK_WriteReg(R0, 0x00000000)  returns 0x00 (0000ms, 0316ms total)
T3AB0 000:633 JLINK_WriteReg(R1, 0x00B71B00)  returns 0x00 (0000ms, 0316ms total)
T3AB0 000:633 JLINK_WriteReg(R2, 0x00000002)  returns 0x00 (0000ms, 0316ms total)
T3AB0 000:633 JLINK_WriteReg(R3, 0x00000000)  returns 0x00 (0000ms, 0316ms total)
T3AB0 000:633 JLINK_WriteReg(R4, 0x00000000)  returns 0x00 (0000ms, 0316ms total)
T3AB0 000:633 JLINK_WriteReg(R5, 0x00000000)  returns 0x00 (0000ms, 0316ms total)
T3AB0 000:633 JLINK_WriteReg(R6, 0x00000000)  returns 0x00 (0000ms, 0316ms total)
T3AB0 000:633 JLINK_WriteReg(R7, 0x00000000)  returns 0x00 (0000ms, 0316ms total)
T3AB0 000:633 JLINK_WriteReg(R8, 0x00000000)  returns 0x00 (0000ms, 0316ms total)
T3AB0 000:634 JLINK_WriteReg(R9, 0x200000EC)  returns 0x00 (0000ms, 0317ms total)
T3AB0 000:634 JLINK_WriteReg(R10, 0x00000000)  returns 0x00 (0000ms, 0317ms total)
T3AB0 000:634 JLINK_WriteReg(R11, 0x00000000)  returns 0x00 (0000ms, 0317ms total)
T3AB0 000:634 JLINK_WriteReg(R12, 0x00000000)  returns 0x00 (0000ms, 0317ms total)
T3AB0 000:634 JLINK_WriteReg(R13 (SP), 0x20001000)  returns 0x00 (0000ms, 0317ms total)
T3AB0 000:634 JLINK_WriteReg(R14, 0x20000001)  returns 0x00 (0000ms, 0317ms total)
T3AB0 000:634 JLINK_WriteReg(R15 (PC), 0x20000038)  returns 0x00 (0000ms, 0317ms total)
T3AB0 000:634 JLINK_WriteReg(XPSR, 0x01000000)  returns 0x00 (0000ms, 0317ms total)
T3AB0 000:634 JLINK_WriteReg(MSP, 0x20001000)  returns 0x00 (0000ms, 0317ms total)
T3AB0 000:634 JLINK_WriteReg(PSP, 0x20001000)  returns 0x00 (0000ms, 0317ms total)
T3AB0 000:634 JLINK_WriteReg(CFBP, 0x00000000)  returns 0x00 (0000ms, 0317ms total)
T3AB0 000:634 JLINK_SetBPEx(Addr = 0x20000000, Type = 0xFFFFFFF2) -- CPU_ReadMem(4 bytes @ 0x20000000) -- CPU_WriteMem(4 bytes @ 0x20000000) -- CPU_ReadMem(4 bytes @ 0x20000000) -- CPU_WriteMem(4 bytes @ 0x20000000) -- CPU_ReadMem(2 bytes @ 0x20000000)  returns 0x00000004 (0004ms, 0321ms total)
T3AB0 000:638 JLINK_Go() -- CPU_WriteMem(2 bytes @ 0x20000000) -- CPU_ReadMem(4 bytes @ 0xE0001000) (0003ms, 0324ms total)
T3AB0 000:641 JLINK_IsHalted() -- CPU_ReadMem(2 bytes @ 0x20000000)  returns TRUE (0005ms, 0329ms total)
T3AB0 000:646 JLINK_ReadReg(R15 (PC))  returns 0x20000000 (0000ms, 0324ms total)
T3AB0 000:646 JLINK_ClrBPEx(BPHandle = 0x00000004)  returns 0x00 (0000ms, 0324ms total)
T3AB0 000:646 JLINK_ReadReg(R0)  returns 0x00000000 (0000ms, 0324ms total)
T3AB0 000:646 JLINK_WriteMem(0x200000F0, 0x0100 Bytes, ...) - Data: 68 3F 00 20 D9 00 00 00 E1 00 00 00 41 02 00 00 ... -- CPU_WriteMem(256 bytes @ 0x200000F0)  returns 0x100 (0002ms, 0326ms total)
T3AB0 000:648 JLINK_WriteReg(R0, 0x00000000)  returns 0x00 (0001ms, 0327ms total)
T3AB0 000:649 JLINK_WriteReg(R1, 0x00000100)  returns 0x00 (0000ms, 0327ms total)
T3AB0 000:649 JLINK_WriteReg(R2, 0x200000F0)  returns 0x00 (0000ms, 0327ms total)
T3AB0 000:649 JLINK_WriteReg(R3, 0x00000000)  returns 0x00 (0000ms, 0327ms total)
T3AB0 000:649 JLINK_WriteReg(R4, 0x00000000)  returns 0x00 (0000ms, 0327ms total)
T3AB0 000:649 JLINK_WriteReg(R5, 0x00000000)  returns 0x00 (0000ms, 0327ms total)
T3AB0 000:649 JLINK_WriteReg(R6, 0x00000000)  returns 0x00 (0000ms, 0327ms total)
T3AB0 000:649 JLINK_WriteReg(R7, 0x00000000)  returns 0x00 (0000ms, 0327ms total)
T3AB0 000:649 JLINK_WriteReg(R8, 0x00000000)  returns 0x00 (0000ms, 0327ms total)
T3AB0 000:649 JLINK_WriteReg(R9, 0x200000EC)  returns 0x00 (0000ms, 0327ms total)
T3AB0 000:649 JLINK_WriteReg(R10, 0x00000000)  returns 0x00 (0000ms, 0327ms total)
T3AB0 000:649 JLINK_WriteReg(R11, 0x00000000)  returns 0x00 (0000ms, 0327ms total)
T3AB0 000:649 JLINK_WriteReg(R12, 0x00000000)  returns 0x00 (0000ms, 0327ms total)
T3AB0 000:649 JLINK_WriteReg(R13 (SP), 0x20001000)  returns 0x00 (0000ms, 0327ms total)
T3AB0 000:649 JLINK_WriteReg(R14, 0x20000001)  returns 0x00 (0000ms, 0327ms total)
T3AB0 000:649 JLINK_WriteReg(R15 (PC), 0x200000AA)  returns 0x00 (0000ms, 0327ms total)
T3AB0 000:649 JLINK_WriteReg(XPSR, 0x01000000)  returns 0x00 (0000ms, 0327ms total)
T3AB0 000:649 JLINK_WriteReg(MSP, 0x20001000)  returns 0x00 (0001ms, 0328ms total)
T3AB0 000:650 JLINK_WriteReg(PSP, 0x20001000)  returns 0x00 (0000ms, 0328ms total)
T3AB0 000:650 JLINK_WriteReg(CFBP, 0x00000000)  returns 0x00 (0000ms, 0328ms total)
T3AB0 000:650 JLINK_SetBPEx(Addr = 0x20000000, Type = 0xFFFFFFF2)  returns 0x00000005 (0000ms, 0328ms total)
T3AB0 000:650 JLINK_Go() -- CPU_ReadMem(4 bytes @ 0xE0001000) (0002ms, 0330ms total)
T3AB0 000:652 JLINK_IsHalted() -- CPU_ReadMem(2 bytes @ 0x20000000)  returns TRUE (0004ms, 0334ms total)
T3AB0 000:656 JLINK_ReadReg(R15 (PC))  returns 0x20000000 (0000ms, 0330ms total)
T3AB0 000:656 JLINK_ClrBPEx(BPHandle = 0x00000005)  returns 0x00 (0000ms, 0330ms total)
T3AB0 000:656 JLINK_ReadReg(R0)  returns 0x00000000 (0000ms, 0330ms total)
T3AB0 000:657 JLINK_WriteMem(0x200000F0, 0x0100 Bytes, ...) - Data: 9B 07 03 D0 09 E0 08 C9 12 1F 08 C0 04 2A FA D2 ... -- CPU_WriteMem(256 bytes @ 0x200000F0)  returns 0x100 (0002ms, 0332ms total)
T3AB0 000:659 JLINK_WriteReg(R0, 0x00000100)  returns 0x00 (0000ms, 0332ms total)
T3AB0 000:659 JLINK_WriteReg(R1, 0x00000100)  returns 0x00 (0000ms, 0332ms total)
T3AB0 000:659 JLINK_WriteReg(R2, 0x200000F0)  returns 0x00 (0000ms, 0332ms total)
T3AB0 000:659 JLINK_WriteReg(R3, 0x00000000)  returns 0x00 (0000ms, 0332ms total)
T3AB0 000:659 JLINK_WriteReg(R4, 0x00000000)  returns 0x00 (0000ms, 0332ms total)
T3AB0 000:659 JLINK_WriteReg(R5, 0x00000000)  returns 0x00 (0000ms, 0332ms total)
T3AB0 000:659 JLINK_WriteReg(R6, 0x00000000)  returns 0x00 (0000ms, 0332ms total)
T3AB0 000:659 JLINK_WriteReg(R7, 0x00000000)  returns 0x00 (0000ms, 0332ms total)
T3AB0 000:659 JLINK_WriteReg(R8, 0x00000000)  returns 0x00 (0000ms, 0332ms total)
T3AB0 000:659 JLINK_WriteReg(R9, 0x200000EC)  returns 0x00 (0000ms, 0332ms total)
T3AB0 000:659 JLINK_WriteReg(R10, 0x00000000)  returns 0x00 (0000ms, 0332ms total)
T3AB0 000:659 JLINK_WriteReg(R11, 0x00000000)  returns 0x00 (0000ms, 0332ms total)
T3AB0 000:659 JLINK_WriteReg(R12, 0x00000000)  returns 0x00 (0000ms, 0332ms total)
T3AB0 000:659 JLINK_WriteReg(R13 (SP), 0x20001000)  returns 0x00 (0000ms, 0332ms total)
T3AB0 000:659 JLINK_WriteReg(R14, 0x20000001)  returns 0x00 (0000ms, 0332ms total)
T3AB0 000:660 JLINK_WriteReg(R15 (PC), 0x200000AA)  returns 0x00 (0000ms, 0332ms total)
T3AB0 000:660 JLINK_WriteReg(XPSR, 0x01000000)  returns 0x00 (0000ms, 0332ms total)
T3AB0 000:660 JLINK_WriteReg(MSP, 0x20001000)  returns 0x00 (0000ms, 0332ms total)
T3AB0 000:660 JLINK_WriteReg(PSP, 0x20001000)  returns 0x00 (0000ms, 0332ms total)
T3AB0 000:660 JLINK_WriteReg(CFBP, 0x00000000)  returns 0x00 (0000ms, 0332ms total)
T3AB0 000:660 JLINK_SetBPEx(Addr = 0x20000000, Type = 0xFFFFFFF2)  returns 0x00000006 (0000ms, 0332ms total)
T3AB0 000:660 JLINK_Go() -- CPU_ReadMem(4 bytes @ 0xE0001000) (0002ms, 0334ms total)
T3AB0 000:662 JLINK_IsHalted() -- CPU_ReadMem(2 bytes @ 0x20000000)  returns TRUE (0004ms, 0338ms total)
T3AB0 000:666 JLINK_ReadReg(R15 (PC))  returns 0x20000000 (0000ms, 0334ms total)
T3AB0 000:666 JLINK_ClrBPEx(BPHandle = 0x00000006)  returns 0x00 (0000ms, 0334ms total)
T3AB0 000:666 JLINK_ReadReg(R0)  returns 0x00000000 (0000ms, 0334ms total)
T3AB0 000:667 JLINK_WriteMem(0x200000F0, 0x0100 Bytes, ...) - Data: 10 F8 01 5B 01 F8 01 5B 5B 1E F9 D1 01 E0 01 F8 ... -- CPU_WriteMem(256 bytes @ 0x200000F0)  returns 0x100 (0003ms, 0337ms total)
T3AB0 000:670 JLINK_WriteReg(R0, 0x00000200)  returns 0x00 (0000ms, 0337ms total)
T3AB0 000:670 JLINK_WriteReg(R1, 0x00000100)  returns 0x00 (0000ms, 0337ms total)
T3AB0 000:670 JLINK_WriteReg(R2, 0x200000F0)  returns 0x00 (0000ms, 0337ms total)
T3AB0 000:670 JLINK_WriteReg(R3, 0x00000000)  returns 0x00 (0000ms, 0337ms total)
T3AB0 000:670 JLINK_WriteReg(R4, 0x00000000)  returns 0x00 (0000ms, 0337ms total)
T3AB0 000:670 JLINK_WriteReg(R5, 0x00000000)  returns 0x00 (0000ms, 0337ms total)
T3AB0 000:670 JLINK_WriteReg(R6, 0x00000000)  returns 0x00 (0000ms, 0337ms total)
T3AB0 000:670 JLINK_WriteReg(R7, 0x00000000)  returns 0x00 (0000ms, 0337ms total)
T3AB0 000:670 JLINK_WriteReg(R8, 0x00000000)  returns 0x00 (0000ms, 0337ms total)
T3AB0 000:670 JLINK_WriteReg(R9, 0x200000EC)  returns 0x00 (0000ms, 0337ms total)
T3AB0 000:670 JLINK_WriteReg(R10, 0x00000000)  returns 0x00 (0000ms, 0337ms total)
T3AB0 000:670 JLINK_WriteReg(R11, 0x00000000)  returns 0x00 (0000ms, 0337ms total)
T3AB0 000:670 JLINK_WriteReg(R12, 0x00000000)  returns 0x00 (0000ms, 0337ms total)
T3AB0 000:670 JLINK_WriteReg(R13 (SP), 0x20001000)  returns 0x00 (0000ms, 0337ms total)
T3AB0 000:670 JLINK_WriteReg(R14, 0x20000001)  returns 0x00 (0000ms, 0337ms total)
T3AB0 000:670 JLINK_WriteReg(R15 (PC), 0x200000AA)  returns 0x00 (0000ms, 0337ms total)
T3AB0 000:670 JLINK_WriteReg(XPSR, 0x01000000)  returns 0x00 (0000ms, 0337ms total)
T3AB0 000:670 JLINK_WriteReg(MSP, 0x20001000)  returns 0x00 (0000ms, 0337ms total)
T3AB0 000:671 JLINK_WriteReg(PSP, 0x20001000)  returns 0x00 (0000ms, 0337ms total)
T3AB0 000:671 JLINK_WriteReg(CFBP, 0x00000000)  returns 0x00 (0000ms, 0337ms total)
T3AB0 000:671 JLINK_SetBPEx(Addr = 0x20000000, Type = 0xFFFFFFF2)  returns 0x00000007 (0000ms, 0337ms total)
T3AB0 000:671 JLINK_Go() -- CPU_ReadMem(4 bytes @ 0xE0001000) (0003ms, 0340ms total)
T3AB0 000:674 JLINK_IsHalted() -- CPU_ReadMem(2 bytes @ 0x20000000)  returns TRUE (0004ms, 0344ms total)
T3AB0 000:678 JLINK_ReadReg(R15 (PC))  returns 0x20000000 (0000ms, 0340ms total)
T3AB0 000:678 JLINK_ClrBPEx(BPHandle = 0x00000007)  returns 0x00 (0000ms, 0340ms total)
T3AB0 000:678 JLINK_ReadReg(R0)  returns 0x00000000 (0000ms, 0340ms total)
T3AB0 000:679 JLINK_WriteMem(0x200000F0, 0x0100 Bytes, ...) - Data: 81 40 40 68 20 F0 03 00 C0 1C 4F F0 81 41 48 60 ... -- CPU_WriteMem(256 bytes @ 0x200000F0)  returns 0x100 (0003ms, 0343ms total)
T3AB0 000:682 JLINK_WriteReg(R0, 0x00000300)  returns 0x00 (0000ms, 0343ms total)
T3AB0 000:682 JLINK_WriteReg(R1, 0x00000100)  returns 0x00 (0000ms, 0343ms total)
T3AB0 000:682 JLINK_WriteReg(R2, 0x200000F0)  returns 0x00 (0000ms, 0343ms total)
T3AB0 000:682 JLINK_WriteReg(R3, 0x00000000)  returns 0x00 (0000ms, 0343ms total)
T3AB0 000:682 JLINK_WriteReg(R4, 0x00000000)  returns 0x00 (0000ms, 0343ms total)
T3AB0 000:682 JLINK_WriteReg(R5, 0x00000000)  returns 0x00 (0000ms, 0343ms total)
T3AB0 000:682 JLINK_WriteReg(R6, 0x00000000)  returns 0x00 (0000ms, 0343ms total)
T3AB0 000:682 JLINK_WriteReg(R7, 0x00000000)  returns 0x00 (0000ms, 0343ms total)
T3AB0 000:682 JLINK_WriteReg(R8, 0x00000000)  returns 0x00 (0000ms, 0343ms total)
T3AB0 000:682 JLINK_WriteReg(R9, 0x200000EC)  returns 0x00 (0000ms, 0343ms total)
T3AB0 000:682 JLINK_WriteReg(R10, 0x00000000)  returns 0x00 (0000ms, 0343ms total)
T3AB0 000:682 JLINK_WriteReg(R11, 0x00000000)  returns 0x00 (0000ms, 0343ms total)
T3AB0 000:682 JLINK_WriteReg(R12, 0x00000000)  returns 0x00 (0000ms, 0343ms total)
T3AB0 000:682 JLINK_WriteReg(R13 (SP), 0x20001000)  returns 0x00 (0000ms, 0343ms total)
T3AB0 000:682 JLINK_WriteReg(R14, 0x20000001)  returns 0x00 (0000ms, 0343ms total)
T3AB0 000:682 JLINK_WriteReg(R15 (PC), 0x200000AA)  returns 0x00 (0000ms, 0343ms total)
T3AB0 000:682 JLINK_WriteReg(XPSR, 0x01000000)  returns 0x00 (0000ms, 0343ms total)
T3AB0 000:682 JLINK_WriteReg(MSP, 0x20001000)  returns 0x00 (0000ms, 0343ms total)
T3AB0 000:682 JLINK_WriteReg(PSP, 0x20001000)  returns 0x00 (0000ms, 0343ms total)
T3AB0 000:682 JLINK_WriteReg(CFBP, 0x00000000)  returns 0x00 (0001ms, 0344ms total)
T3AB0 000:683 JLINK_SetBPEx(Addr = 0x20000000, Type = 0xFFFFFFF2)  returns 0x00000008 (0000ms, 0344ms total)
T3AB0 000:683 JLINK_Go() -- CPU_ReadMem(4 bytes @ 0xE0001000) (0002ms, 0346ms total)
T3AB0 000:685 JLINK_IsHalted() -- CPU_ReadMem(2 bytes @ 0x20000000)  returns TRUE (0004ms, 0350ms total)
T3AB0 000:689 JLINK_ReadReg(R15 (PC))  returns 0x20000000 (0000ms, 0346ms total)
T3AB0 000:689 JLINK_ClrBPEx(BPHandle = 0x00000008)  returns 0x00 (0000ms, 0346ms total)
T3AB0 000:689 JLINK_ReadReg(R0)  returns 0x00000000 (0000ms, 0346ms total)
T3AB0 000:689 JLINK_WriteMem(0x200000F0, 0x0100 Bytes, ...) - Data: 40 50 00 F1 00 50 48 63 79 48 00 6A 01 90 01 98 ... -- CPU_WriteMem(256 bytes @ 0x200000F0)  returns 0x100 (0003ms, 0349ms total)
T3AB0 000:692 JLINK_WriteReg(R0, 0x00000400)  returns 0x00 (0000ms, 0349ms total)
T3AB0 000:692 JLINK_WriteReg(R1, 0x00000100)  returns 0x00 (0000ms, 0349ms total)
T3AB0 000:692 JLINK_WriteReg(R2, 0x200000F0)  returns 0x00 (0000ms, 0349ms total)
T3AB0 000:692 JLINK_WriteReg(R3, 0x00000000)  returns 0x00 (0000ms, 0349ms total)
T3AB0 000:692 JLINK_WriteReg(R4, 0x00000000)  returns 0x00 (0000ms, 0349ms total)
T3AB0 000:692 JLINK_WriteReg(R5, 0x00000000)  returns 0x00 (0000ms, 0349ms total)
T3AB0 000:692 JLINK_WriteReg(R6, 0x00000000)  returns 0x00 (0000ms, 0349ms total)
T3AB0 000:692 JLINK_WriteReg(R7, 0x00000000)  returns 0x00 (0000ms, 0349ms total)
T3AB0 000:692 JLINK_WriteReg(R8, 0x00000000)  returns 0x00 (0000ms, 0349ms total)
T3AB0 000:692 JLINK_WriteReg(R9, 0x200000EC)  returns 0x00 (0000ms, 0349ms total)
T3AB0 000:692 JLINK_WriteReg(R10, 0x00000000)  returns 0x00 (0000ms, 0349ms total)
T3AB0 000:692 JLINK_WriteReg(R11, 0x00000000)  returns 0x00 (0000ms, 0349ms total)
T3AB0 000:692 JLINK_WriteReg(R12, 0x00000000)  returns 0x00 (0000ms, 0349ms total)
T3AB0 000:692 JLINK_WriteReg(R13 (SP), 0x20001000)  returns 0x00 (0000ms, 0349ms total)
T3AB0 000:692 JLINK_WriteReg(R14, 0x20000001)  returns 0x00 (0000ms, 0349ms total)
T3AB0 000:692 JLINK_WriteReg(R15 (PC), 0x200000AA)  returns 0x00 (0000ms, 0349ms total)
T3AB0 000:693 JLINK_WriteReg(XPSR, 0x01000000)  returns 0x00 (0000ms, 0350ms total)
T3AB0 000:693 JLINK_WriteReg(MSP, 0x20001000)  returns 0x00 (0000ms, 0350ms total)
T3AB0 000:693 JLINK_WriteReg(PSP, 0x20001000)  returns 0x00 (0000ms, 0350ms total)
T3AB0 000:693 JLINK_WriteReg(CFBP, 0x00000000)  returns 0x00 (0000ms, 0350ms total)
T3AB0 000:693 JLINK_SetBPEx(Addr = 0x20000000, Type = 0xFFFFFFF2)  returns 0x00000009 (0000ms, 0350ms total)
T3AB0 000:693 JLINK_Go() -- CPU_ReadMem(4 bytes @ 0xE0001000) (0002ms, 0352ms total)
T3AB0 000:695 JLINK_IsHalted() -- CPU_ReadMem(2 bytes @ 0x20000000)  returns TRUE (0005ms, 0357ms total)
T3AB0 000:700 JLINK_ReadReg(R15 (PC))  returns 0x20000000 (0000ms, 0352ms total)
T3AB0 000:700 JLINK_ClrBPEx(BPHandle = 0x00000009)  returns 0x00 (0000ms, 0352ms total)
T3AB0 000:700 JLINK_ReadReg(R0)  returns 0x00000000 (0000ms, 0352ms total)
T3AB0 000:701 JLINK_WriteMem(0x200000F0, 0x0100 Bytes, ...) - Data: 20 F4 E0 40 00 F5 40 50 00 90 00 98 20 F4 00 40 ... -- CPU_WriteMem(256 bytes @ 0x200000F0)  returns 0x100 (0002ms, 0354ms total)
T3AB0 000:703 JLINK_WriteReg(R0, 0x00000500)  returns 0x00 (0000ms, 0354ms total)
T3AB0 000:703 JLINK_WriteReg(R1, 0x00000100)  returns 0x00 (0000ms, 0354ms total)
T3AB0 000:703 JLINK_WriteReg(R2, 0x200000F0)  returns 0x00 (0000ms, 0354ms total)
T3AB0 000:703 JLINK_WriteReg(R3, 0x00000000)  returns 0x00 (0000ms, 0354ms total)
T3AB0 000:703 JLINK_WriteReg(R4, 0x00000000)  returns 0x00 (0000ms, 0354ms total)
T3AB0 000:703 JLINK_WriteReg(R5, 0x00000000)  returns 0x00 (0000ms, 0354ms total)
T3AB0 000:703 JLINK_WriteReg(R6, 0x00000000)  returns 0x00 (0000ms, 0354ms total)
T3AB0 000:703 JLINK_WriteReg(R7, 0x00000000)  returns 0x00 (0000ms, 0354ms total)
T3AB0 000:703 JLINK_WriteReg(R8, 0x00000000)  returns 0x00 (0000ms, 0354ms total)
T3AB0 000:703 JLINK_WriteReg(R9, 0x200000EC)  returns 0x00 (0000ms, 0354ms total)
T3AB0 000:703 JLINK_WriteReg(R10, 0x00000000)  returns 0x00 (0000ms, 0354ms total)
T3AB0 000:703 JLINK_WriteReg(R11, 0x00000000)  returns 0x00 (0000ms, 0354ms total)
T3AB0 000:703 JLINK_WriteReg(R12, 0x00000000)  returns 0x00 (0000ms, 0354ms total)
T3AB0 000:703 JLINK_WriteReg(R13 (SP), 0x20001000)  returns 0x00 (0000ms, 0354ms total)
T3AB0 000:703 JLINK_WriteReg(R14, 0x20000001)  returns 0x00 (0000ms, 0354ms total)
T3AB0 000:703 JLINK_WriteReg(R15 (PC), 0x200000AA)  returns 0x00 (0000ms, 0354ms total)
T3AB0 000:703 JLINK_WriteReg(XPSR, 0x01000000)  returns 0x00 (0000ms, 0354ms total)
T3AB0 000:703 JLINK_WriteReg(MSP, 0x20001000)  returns 0x00 (0000ms, 0354ms total)
T3AB0 000:703 JLINK_WriteReg(PSP, 0x20001000)  returns 0x00 (0000ms, 0354ms total)
T3AB0 000:703 JLINK_WriteReg(CFBP, 0x00000000)  returns 0x00 (0001ms, 0355ms total)
T3AB0 000:704 JLINK_SetBPEx(Addr = 0x20000000, Type = 0xFFFFFFF2)  returns 0x0000000A (0000ms, 0355ms total)
T3AB0 000:704 JLINK_Go() -- CPU_ReadMem(4 bytes @ 0xE0001000) (0002ms, 0357ms total)
T3AB0 000:706 JLINK_IsHalted() -- CPU_ReadMem(2 bytes @ 0x20000000)  returns TRUE (0004ms, 0361ms total)
T3AB0 000:710 JLINK_ReadReg(R15 (PC))  returns 0x20000000 (0000ms, 0357ms total)
T3AB0 000:710 JLINK_ClrBPEx(BPHandle = 0x0000000A)  returns 0x00 (0000ms, 0357ms total)
T3AB0 000:710 JLINK_ReadReg(R0)  returns 0x00000000 (0000ms, 0357ms total)
T3AB0 000:711 JLINK_WriteMem(0x200000F0, 0x0100 Bytes, ...) - Data: 20 F0 FF 00 3F 30 11 49 48 62 40 F2 91 11 0F 48 ... -- CPU_WriteMem(256 bytes @ 0x200000F0)  returns 0x100 (0002ms, 0359ms total)
T3AB0 000:713 JLINK_WriteReg(R0, 0x00000600)  returns 0x00 (0000ms, 0359ms total)
T3AB0 000:713 JLINK_WriteReg(R1, 0x00000100)  returns 0x00 (0000ms, 0359ms total)
T3AB0 000:713 JLINK_WriteReg(R2, 0x200000F0)  returns 0x00 (0000ms, 0359ms total)
T3AB0 000:713 JLINK_WriteReg(R3, 0x00000000)  returns 0x00 (0000ms, 0359ms total)
T3AB0 000:713 JLINK_WriteReg(R4, 0x00000000)  returns 0x00 (0000ms, 0359ms total)
T3AB0 000:713 JLINK_WriteReg(R5, 0x00000000)  returns 0x00 (0000ms, 0359ms total)
T3AB0 000:713 JLINK_WriteReg(R6, 0x00000000)  returns 0x00 (0000ms, 0359ms total)
T3AB0 000:713 JLINK_WriteReg(R7, 0x00000000)  returns 0x00 (0000ms, 0359ms total)
T3AB0 000:713 JLINK_WriteReg(R8, 0x00000000)  returns 0x00 (0000ms, 0359ms total)
T3AB0 000:713 JLINK_WriteReg(R9, 0x200000EC)  returns 0x00 (0000ms, 0359ms total)
T3AB0 000:713 JLINK_WriteReg(R10, 0x00000000)  returns 0x00 (0000ms, 0359ms total)
T3AB0 000:713 JLINK_WriteReg(R11, 0x00000000)  returns 0x00 (0000ms, 0359ms total)
T3AB0 000:713 JLINK_WriteReg(R12, 0x00000000)  returns 0x00 (0000ms, 0359ms total)
T3AB0 000:713 JLINK_WriteReg(R13 (SP), 0x20001000)  returns 0x00 (0000ms, 0359ms total)
T3AB0 000:713 JLINK_WriteReg(R14, 0x20000001)  returns 0x00 (0001ms, 0360ms total)
T3AB0 000:714 JLINK_WriteReg(R15 (PC), 0x200000AA)  returns 0x00 (0000ms, 0360ms total)
T3AB0 000:714 JLINK_WriteReg(XPSR, 0x01000000)  returns 0x00 (0000ms, 0360ms total)
T3AB0 000:714 JLINK_WriteReg(MSP, 0x20001000)  returns 0x00 (0000ms, 0360ms total)
T3AB0 000:714 JLINK_WriteReg(PSP, 0x20001000)  returns 0x00 (0000ms, 0360ms total)
T3AB0 000:714 JLINK_WriteReg(CFBP, 0x00000000)  returns 0x00 (0000ms, 0360ms total)
T3AB0 000:714 JLINK_SetBPEx(Addr = 0x20000000, Type = 0xFFFFFFF2)  returns 0x0000000B (0000ms, 0360ms total)
T3AB0 000:714 JLINK_Go() -- CPU_ReadMem(4 bytes @ 0xE0001000) (0003ms, 0363ms total)
T3AB0 000:717 JLINK_IsHalted() -- CPU_ReadMem(2 bytes @ 0x20000000)  returns TRUE (0004ms, 0367ms total)
T3AB0 000:721 JLINK_ReadReg(R15 (PC))  returns 0x20000000 (0000ms, 0363ms total)
T3AB0 000:721 JLINK_ClrBPEx(BPHandle = 0x0000000B)  returns 0x00 (0000ms, 0363ms total)
T3AB0 000:721 JLINK_ReadReg(R0)  returns 0x00000000 (0000ms, 0363ms total)
T3AB0 000:722 JLINK_WriteMem(0x200000F0, 0x0100 Bytes, ...) - Data: 00 20 01 E0 01 C1 12 1F 00 2A FB D1 70 47 00 00 ... -- CPU_WriteMem(256 bytes @ 0x200000F0)  returns 0x100 (0003ms, 0366ms total)
T3AB0 000:725 JLINK_WriteReg(R0, 0x00000700)  returns 0x00 (0000ms, 0366ms total)
T3AB0 000:725 JLINK_WriteReg(R1, 0x00000100)  returns 0x00 (0000ms, 0366ms total)
T3AB0 000:725 JLINK_WriteReg(R2, 0x200000F0)  returns 0x00 (0000ms, 0366ms total)
T3AB0 000:725 JLINK_WriteReg(R3, 0x00000000)  returns 0x00 (0000ms, 0366ms total)
T3AB0 000:725 JLINK_WriteReg(R4, 0x00000000)  returns 0x00 (0000ms, 0366ms total)
T3AB0 000:725 JLINK_WriteReg(R5, 0x00000000)  returns 0x00 (0000ms, 0366ms total)
T3AB0 000:725 JLINK_WriteReg(R6, 0x00000000)  returns 0x00 (0000ms, 0366ms total)
T3AB0 000:725 JLINK_WriteReg(R7, 0x00000000)  returns 0x00 (0000ms, 0366ms total)
T3AB0 000:725 JLINK_WriteReg(R8, 0x00000000)  returns 0x00 (0000ms, 0366ms total)
T3AB0 000:725 JLINK_WriteReg(R9, 0x200000EC)  returns 0x00 (0000ms, 0366ms total)
T3AB0 000:725 JLINK_WriteReg(R10, 0x00000000)  returns 0x00 (0000ms, 0366ms total)
T3AB0 000:725 JLINK_WriteReg(R11, 0x00000000)  returns 0x00 (0000ms, 0366ms total)
T3AB0 000:725 JLINK_WriteReg(R12, 0x00000000)  returns 0x00 (0000ms, 0366ms total)
T3AB0 000:725 JLINK_WriteReg(R13 (SP), 0x20001000)  returns 0x00 (0000ms, 0366ms total)
T3AB0 000:725 JLINK_WriteReg(R14, 0x20000001)  returns 0x00 (0000ms, 0366ms total)
T3AB0 000:725 JLINK_WriteReg(R15 (PC), 0x200000AA)  returns 0x00 (0000ms, 0366ms total)
T3AB0 000:725 JLINK_WriteReg(XPSR, 0x01000000)  returns 0x00 (0000ms, 0366ms total)
T3AB0 000:725 JLINK_WriteReg(MSP, 0x20001000)  returns 0x00 (0000ms, 0366ms total)
T3AB0 000:725 JLINK_WriteReg(PSP, 0x20001000)  returns 0x00 (0000ms, 0366ms total)
T3AB0 000:725 JLINK_WriteReg(CFBP, 0x00000000)  returns 0x00 (0001ms, 0367ms total)
T3AB0 000:726 JLINK_SetBPEx(Addr = 0x20000000, Type = 0xFFFFFFF2)  returns 0x0000000C (0000ms, 0367ms total)
T3AB0 000:726 JLINK_Go() -- CPU_ReadMem(4 bytes @ 0xE0001000) (0002ms, 0369ms total)
T3AB0 000:728 JLINK_IsHalted() -- CPU_ReadMem(2 bytes @ 0x20000000)  returns TRUE (0004ms, 0373ms total)
T3AB0 000:732 JLINK_ReadReg(R15 (PC))  returns 0x20000000 (0000ms, 0369ms total)
T3AB0 000:732 JLINK_ClrBPEx(BPHandle = 0x0000000C)  returns 0x00 (0000ms, 0369ms total)
T3AB0 000:732 JLINK_ReadReg(R0)  returns 0x00000000 (0000ms, 0369ms total)
T3AB0 000:733 JLINK_WriteMem(0x200000F0, 0x0100 Bytes, ...) - Data: 8D F8 01 00 E9 46 01 20 03 E0 57 F8 04 9B 4F F0 ... -- CPU_WriteMem(256 bytes @ 0x200000F0)  returns 0x100 (0002ms, 0371ms total)
T3AB0 000:735 JLINK_WriteReg(R0, 0x00000800)  returns 0x00 (0000ms, 0371ms total)
T3AB0 000:735 JLINK_WriteReg(R1, 0x00000100)  returns 0x00 (0000ms, 0371ms total)
T3AB0 000:735 JLINK_WriteReg(R2, 0x200000F0)  returns 0x00 (0000ms, 0371ms total)
T3AB0 000:735 JLINK_WriteReg(R3, 0x00000000)  returns 0x00 (0000ms, 0371ms total)
T3AB0 000:735 JLINK_WriteReg(R4, 0x00000000)  returns 0x00 (0000ms, 0371ms total)
T3AB0 000:735 JLINK_WriteReg(R5, 0x00000000)  returns 0x00 (0000ms, 0371ms total)
T3AB0 000:735 JLINK_WriteReg(R6, 0x00000000)  returns 0x00 (0000ms, 0371ms total)
T3AB0 000:735 JLINK_WriteReg(R7, 0x00000000)  returns 0x00 (0000ms, 0371ms total)
T3AB0 000:735 JLINK_WriteReg(R8, 0x00000000)  returns 0x00 (0000ms, 0371ms total)
T3AB0 000:735 JLINK_WriteReg(R9, 0x200000EC)  returns 0x00 (0000ms, 0371ms total)
T3AB0 000:735 JLINK_WriteReg(R10, 0x00000000)  returns 0x00 (0000ms, 0371ms total)
T3AB0 000:735 JLINK_WriteReg(R11, 0x00000000)  returns 0x00 (0000ms, 0371ms total)
T3AB0 000:735 JLINK_WriteReg(R12, 0x00000000)  returns 0x00 (0000ms, 0371ms total)
T3AB0 000:735 JLINK_WriteReg(R13 (SP), 0x20001000)  returns 0x00 (0000ms, 0371ms total)
T3AB0 000:735 JLINK_WriteReg(R14, 0x20000001)  returns 0x00 (0000ms, 0371ms total)
T3AB0 000:735 JLINK_WriteReg(R15 (PC), 0x200000AA)  returns 0x00 (0000ms, 0371ms total)
T3AB0 000:735 JLINK_WriteReg(XPSR, 0x01000000)  returns 0x00 (0000ms, 0371ms total)
T3AB0 000:735 JLINK_WriteReg(MSP, 0x20001000)  returns 0x00 (0000ms, 0371ms total)
T3AB0 000:735 JLINK_WriteReg(PSP, 0x20001000)  returns 0x00 (0000ms, 0371ms total)
T3AB0 000:735 JLINK_WriteReg(CFBP, 0x00000000)  returns 0x00 (0000ms, 0371ms total)
T3AB0 000:735 JLINK_SetBPEx(Addr = 0x20000000, Type = 0xFFFFFFF2)  returns 0x0000000D (0000ms, 0371ms total)
T3AB0 000:735 JLINK_Go() -- CPU_ReadMem(4 bytes @ 0xE0001000) (0003ms, 0374ms total)
T3AB0 000:738 JLINK_IsHalted() -- CPU_ReadMem(2 bytes @ 0x20000000)  returns TRUE (0003ms, 0377ms total)
T3AB0 000:741 JLINK_ReadReg(R15 (PC))  returns 0x20000000 (0000ms, 0374ms total)
T3AB0 000:741 JLINK_ClrBPEx(BPHandle = 0x0000000D)  returns 0x00 (0000ms, 0374ms total)
T3AB0 000:741 JLINK_ReadReg(R0)  returns 0x00000000 (0000ms, 0374ms total)
T3AB0 000:742 JLINK_WriteMem(0x200000F0, 0x0100 Bytes, ...) - Data: 01 03 06 D0 30 23 8D F8 28 30 8D F8 29 20 02 23 ... -- CPU_WriteMem(256 bytes @ 0x200000F0)  returns 0x100 (0003ms, 0377ms total)
T3AB0 000:745 JLINK_WriteReg(R0, 0x00000900)  returns 0x00 (0000ms, 0377ms total)
T3AB0 000:745 JLINK_WriteReg(R1, 0x00000100)  returns 0x00 (0000ms, 0377ms total)
T3AB0 000:745 JLINK_WriteReg(R2, 0x200000F0)  returns 0x00 (0000ms, 0377ms total)
T3AB0 000:745 JLINK_WriteReg(R3, 0x00000000)  returns 0x00 (0000ms, 0377ms total)
T3AB0 000:745 JLINK_WriteReg(R4, 0x00000000)  returns 0x00 (0000ms, 0377ms total)
T3AB0 000:745 JLINK_WriteReg(R5, 0x00000000)  returns 0x00 (0000ms, 0377ms total)
T3AB0 000:745 JLINK_WriteReg(R6, 0x00000000)  returns 0x00 (0000ms, 0377ms total)
T3AB0 000:745 JLINK_WriteReg(R7, 0x00000000)  returns 0x00 (0000ms, 0377ms total)
T3AB0 000:745 JLINK_WriteReg(R8, 0x00000000)  returns 0x00 (0000ms, 0377ms total)
T3AB0 000:745 JLINK_WriteReg(R9, 0x200000EC)  returns 0x00 (0000ms, 0377ms total)
T3AB0 000:745 JLINK_WriteReg(R10, 0x00000000)  returns 0x00 (0000ms, 0377ms total)
T3AB0 000:745 JLINK_WriteReg(R11, 0x00000000)  returns 0x00 (0000ms, 0377ms total)
T3AB0 000:745 JLINK_WriteReg(R12, 0x00000000)  returns 0x00 (0000ms, 0377ms total)
T3AB0 000:745 JLINK_WriteReg(R13 (SP), 0x20001000)  returns 0x00 (0000ms, 0377ms total)
T3AB0 000:745 JLINK_WriteReg(R14, 0x20000001)  returns 0x00 (0000ms, 0377ms total)
T3AB0 000:745 JLINK_WriteReg(R15 (PC), 0x200000AA)  returns 0x00 (0000ms, 0377ms total)
T3AB0 000:745 JLINK_WriteReg(XPSR, 0x01000000)  returns 0x00 (0000ms, 0377ms total)
T3AB0 000:745 JLINK_WriteReg(MSP, 0x20001000)  returns 0x00 (0000ms, 0377ms total)
T3AB0 000:745 JLINK_WriteReg(PSP, 0x20001000)  returns 0x00 (0000ms, 0377ms total)
T3AB0 000:745 JLINK_WriteReg(CFBP, 0x00000000)  returns 0x00 (0000ms, 0377ms total)
T3AB0 000:745 JLINK_SetBPEx(Addr = 0x20000000, Type = 0xFFFFFFF2)  returns 0x0000000E (0000ms, 0377ms total)
T3AB0 000:745 JLINK_Go() -- CPU_ReadMem(4 bytes @ 0xE0001000) (0002ms, 0379ms total)
T3AB0 000:747 JLINK_IsHalted() -- CPU_ReadMem(2 bytes @ 0x20000000)  returns TRUE (0005ms, 0384ms total)
T3AB0 000:752 JLINK_ReadReg(R15 (PC))  returns 0x20000000 (0000ms, 0379ms total)
T3AB0 000:752 JLINK_ClrBPEx(BPHandle = 0x0000000E)  returns 0x00 (0000ms, 0379ms total)
T3AB0 000:752 JLINK_ReadReg(R0)  returns 0x00000000 (0000ms, 0379ms total)
T3AB0 000:752 JLINK_WriteMem(0x200000F0, 0x0100 Bytes, ...) - Data: 98 01 00 20 70 B5 04 46 00 25 00 BF 24 B1 0D 48 ... -- CPU_WriteMem(256 bytes @ 0x200000F0)  returns 0x100 (0002ms, 0381ms total)
T3AB0 000:754 JLINK_WriteReg(R0, 0x00000A00)  returns 0x00 (0000ms, 0381ms total)
T3AB0 000:754 JLINK_WriteReg(R1, 0x00000100)  returns 0x00 (0000ms, 0381ms total)
T3AB0 000:754 JLINK_WriteReg(R2, 0x200000F0)  returns 0x00 (0000ms, 0381ms total)
T3AB0 000:754 JLINK_WriteReg(R3, 0x00000000)  returns 0x00 (0000ms, 0381ms total)
T3AB0 000:754 JLINK_WriteReg(R4, 0x00000000)  returns 0x00 (0000ms, 0381ms total)
T3AB0 000:754 JLINK_WriteReg(R5, 0x00000000)  returns 0x00 (0000ms, 0381ms total)
T3AB0 000:754 JLINK_WriteReg(R6, 0x00000000)  returns 0x00 (0000ms, 0381ms total)
T3AB0 000:754 JLINK_WriteReg(R7, 0x00000000)  returns 0x00 (0000ms, 0381ms total)
T3AB0 000:754 JLINK_WriteReg(R8, 0x00000000)  returns 0x00 (0000ms, 0381ms total)
T3AB0 000:754 JLINK_WriteReg(R9, 0x200000EC)  returns 0x00 (0000ms, 0381ms total)
T3AB0 000:754 JLINK_WriteReg(R10, 0x00000000)  returns 0x00 (0000ms, 0381ms total)
T3AB0 000:754 JLINK_WriteReg(R11, 0x00000000)  returns 0x00 (0000ms, 0381ms total)
T3AB0 000:754 JLINK_WriteReg(R12, 0x00000000)  returns 0x00 (0000ms, 0381ms total)
T3AB0 000:754 JLINK_WriteReg(R13 (SP), 0x20001000)  returns 0x00 (0000ms, 0381ms total)
T3AB0 000:754 JLINK_WriteReg(R14, 0x20000001)  returns 0x00 (0000ms, 0381ms total)
T3AB0 000:754 JLINK_WriteReg(R15 (PC), 0x200000AA)  returns 0x00 (0000ms, 0381ms total)
T3AB0 000:754 JLINK_WriteReg(XPSR, 0x01000000)  returns 0x00 (0000ms, 0381ms total)
T3AB0 000:754 JLINK_WriteReg(MSP, 0x20001000)  returns 0x00 (0000ms, 0381ms total)
T3AB0 000:754 JLINK_WriteReg(PSP, 0x20001000)  returns 0x00 (0000ms, 0381ms total)
T3AB0 000:754 JLINK_WriteReg(CFBP, 0x00000000)  returns 0x00 (0000ms, 0381ms total)
T3AB0 000:754 JLINK_SetBPEx(Addr = 0x20000000, Type = 0xFFFFFFF2)  returns 0x0000000F (0000ms, 0381ms total)
T3AB0 000:754 JLINK_Go() -- CPU_ReadMem(4 bytes @ 0xE0001000) (0003ms, 0384ms total)
T3AB0 000:757 JLINK_IsHalted() -- CPU_ReadMem(2 bytes @ 0x20000000)  returns TRUE (0004ms, 0388ms total)
T3AB0 000:761 JLINK_ReadReg(R15 (PC))  returns 0x20000000 (0000ms, 0384ms total)
T3AB0 000:761 JLINK_ClrBPEx(BPHandle = 0x0000000F)  returns 0x00 (0000ms, 0384ms total)
T3AB0 000:761 JLINK_ReadReg(R0)  returns 0x00000000 (0000ms, 0384ms total)
T3AB0 000:761 JLINK_WriteMem(0x200000F0, 0x0100 Bytes, ...) - Data: 10 49 08 70 10 49 08 60 00 F0 CA FB 4F F4 80 70 ... -- CPU_WriteMem(256 bytes @ 0x200000F0)  returns 0x100 (0002ms, 0386ms total)
T3AB0 000:763 JLINK_WriteReg(R0, 0x00000B00)  returns 0x00 (0000ms, 0386ms total)
T3AB0 000:763 JLINK_WriteReg(R1, 0x00000100)  returns 0x00 (0000ms, 0386ms total)
T3AB0 000:763 JLINK_WriteReg(R2, 0x200000F0)  returns 0x00 (0000ms, 0386ms total)
T3AB0 000:763 JLINK_WriteReg(R3, 0x00000000)  returns 0x00 (0000ms, 0386ms total)
T3AB0 000:763 JLINK_WriteReg(R4, 0x00000000)  returns 0x00 (0000ms, 0386ms total)
T3AB0 000:763 JLINK_WriteReg(R5, 0x00000000)  returns 0x00 (0000ms, 0386ms total)
T3AB0 000:763 JLINK_WriteReg(R6, 0x00000000)  returns 0x00 (0000ms, 0386ms total)
T3AB0 000:763 JLINK_WriteReg(R7, 0x00000000)  returns 0x00 (0000ms, 0386ms total)
T3AB0 000:763 JLINK_WriteReg(R8, 0x00000000)  returns 0x00 (0000ms, 0386ms total)
T3AB0 000:763 JLINK_WriteReg(R9, 0x200000EC)  returns 0x00 (0001ms, 0387ms total)
T3AB0 000:764 JLINK_WriteReg(R10, 0x00000000)  returns 0x00 (0000ms, 0387ms total)
T3AB0 000:764 JLINK_WriteReg(R11, 0x00000000)  returns 0x00 (0000ms, 0387ms total)
T3AB0 000:764 JLINK_WriteReg(R12, 0x00000000)  returns 0x00 (0000ms, 0387ms total)
T3AB0 000:764 JLINK_WriteReg(R13 (SP), 0x20001000)  returns 0x00 (0000ms, 0387ms total)
T3AB0 000:764 JLINK_WriteReg(R14, 0x20000001)  returns 0x00 (0000ms, 0387ms total)
T3AB0 000:764 JLINK_WriteReg(R15 (PC), 0x200000AA)  returns 0x00 (0000ms, 0387ms total)
T3AB0 000:764 JLINK_WriteReg(XPSR, 0x01000000)  returns 0x00 (0000ms, 0387ms total)
T3AB0 000:764 JLINK_WriteReg(MSP, 0x20001000)  returns 0x00 (0000ms, 0387ms total)
T3AB0 000:764 JLINK_WriteReg(PSP, 0x20001000)  returns 0x00 (0000ms, 0387ms total)
T3AB0 000:764 JLINK_WriteReg(CFBP, 0x00000000)  returns 0x00 (0000ms, 0387ms total)
T3AB0 000:764 JLINK_SetBPEx(Addr = 0x20000000, Type = 0xFFFFFFF2)  returns 0x00000010 (0000ms, 0387ms total)
T3AB0 000:764 JLINK_Go() -- CPU_ReadMem(4 bytes @ 0xE0001000) (0003ms, 0390ms total)
T3AB0 000:767 JLINK_IsHalted() -- CPU_ReadMem(2 bytes @ 0x20000000)  returns TRUE (0004ms, 0394ms total)
T3AB0 000:771 JLINK_ReadReg(R15 (PC))  returns 0x20000000 (0000ms, 0390ms total)
T3AB0 000:771 JLINK_ClrBPEx(BPHandle = 0x00000010)  returns 0x00 (0000ms, 0390ms total)
T3AB0 000:771 JLINK_ReadReg(R0)  returns 0x00000000 (0000ms, 0390ms total)
T3AB0 000:771 JLINK_WriteMem(0x200000F0, 0x0100 Bytes, ...) - Data: F0 41 04 46 0D 46 16 46 DD F8 2C 80 00 27 00 F0 ... -- CPU_WriteMem(256 bytes @ 0x200000F0)  returns 0x100 (0002ms, 0392ms total)
T3AB0 000:773 JLINK_WriteReg(R0, 0x00000C00)  returns 0x00 (0000ms, 0392ms total)
T3AB0 000:773 JLINK_WriteReg(R1, 0x00000100)  returns 0x00 (0000ms, 0392ms total)
T3AB0 000:773 JLINK_WriteReg(R2, 0x200000F0)  returns 0x00 (0000ms, 0392ms total)
T3AB0 000:773 JLINK_WriteReg(R3, 0x00000000)  returns 0x00 (0000ms, 0392ms total)
T3AB0 000:773 JLINK_WriteReg(R4, 0x00000000)  returns 0x00 (0000ms, 0392ms total)
T3AB0 000:773 JLINK_WriteReg(R5, 0x00000000)  returns 0x00 (0000ms, 0392ms total)
T3AB0 000:773 JLINK_WriteReg(R6, 0x00000000)  returns 0x00 (0000ms, 0392ms total)
T3AB0 000:773 JLINK_WriteReg(R7, 0x00000000)  returns 0x00 (0000ms, 0392ms total)
T3AB0 000:773 JLINK_WriteReg(R8, 0x00000000)  returns 0x00 (0000ms, 0392ms total)
T3AB0 000:773 JLINK_WriteReg(R9, 0x200000EC)  returns 0x00 (0000ms, 0392ms total)
T3AB0 000:773 JLINK_WriteReg(R10, 0x00000000)  returns 0x00 (0000ms, 0392ms total)
T3AB0 000:773 JLINK_WriteReg(R11, 0x00000000)  returns 0x00 (0000ms, 0392ms total)
T3AB0 000:773 JLINK_WriteReg(R12, 0x00000000)  returns 0x00 (0000ms, 0392ms total)
T3AB0 000:773 JLINK_WriteReg(R13 (SP), 0x20001000)  returns 0x00 (0000ms, 0392ms total)
T3AB0 000:773 JLINK_WriteReg(R14, 0x20000001)  returns 0x00 (0000ms, 0392ms total)
T3AB0 000:773 JLINK_WriteReg(R15 (PC), 0x200000AA)  returns 0x00 (0000ms, 0392ms total)
T3AB0 000:773 JLINK_WriteReg(XPSR, 0x01000000)  returns 0x00 (0000ms, 0392ms total)
T3AB0 000:774 JLINK_WriteReg(MSP, 0x20001000)  returns 0x00 (0000ms, 0392ms total)
T3AB0 000:774 JLINK_WriteReg(PSP, 0x20001000)  returns 0x00 (0000ms, 0392ms total)
